
T0CC0 001:031 SEGGER J-Link V6.46 Log File (0002ms, 0011ms total)
T0CC0 001:031 DLL Compiled: May 23 2019 17:49:56 (0002ms, 0011ms total)
T0CC0 001:031 Logging started @ 2020-04-20 17:26 (0002ms, 0011ms total)
T0CC0 001:033 JLINK_SetWarnOutHandler(...) (0000ms, 0011ms total)
T0CC0 001:033 JLINK_OpenEx(...)
Firmware: J-Link OB-SAM3U128 V1 compiled Jan  7 2019 14:05:40
Hardware: V1.00
S/N: 480061913
TELNET listener socket opened on port 19021WEBSRV 
Starting webserver (0034ms, 0045ms total)
T0CC0 001:033 WEBSRV Webserver running on local port 19080 (0035ms, 0046ms total)
T0CC0 001:033   returns O.K. (0035ms, 0046ms total)
T0CC0 001:068 JLINK_GetEmuCaps()  returns 0xB9FA5A37 (0000ms, 0046ms total)
T0CC0 001:068 JLINK_TIF_GetAvailable(...) (0002ms, 0048ms total)
T0CC0 001:070 JLINK_SetErrorOutHandler(...) (0000ms, 0048ms total)
T0CC0 001:070 JLINK_ExecCommand("ProjectFile = "C:\Users\Terence\Documents\Avans\dice\Infinity_dice\DA14531-DA14585-586_Measuring_Temperature\project_environment\JLinkSettings.ini"", ...).   returns 0x00 (0231ms, 0279ms total)
T0CC0 001:301 JLINK_ExecCommand("Device = ARMCM0", ...). Device "CORTEX-M0" selected.  returns 0x00 (0005ms, 0285ms total)
T0CC0 001:307 JLINK_ExecCommand("DisableConnectionTimeout", ...).   returns 0x01 (0000ms, 0285ms total)
T0CC0 001:307 JLINK_GetHardwareVersion()  returns 0x2710 (0000ms, 0285ms total)
T0CC0 001:307 JLINK_GetDLLVersion()  returns 64600 (0000ms, 0285ms total)
T0CC0 001:307 JLINK_GetFirmwareString(...) (0000ms, 0285ms total)
T0CC0 001:307 JLINK_GetDLLVersion()  returns 64600 (0000ms, 0285ms total)
T0CC0 001:307 JLINK_GetCompileDateTime() (0000ms, 0285ms total)
T0CC0 001:307 JLINK_GetFirmwareString(...) (0000ms, 0285ms total)
T0CC0 001:307 JLINK_GetHardwareVersion()  returns 0x2710 (0000ms, 0285ms total)
T0CC0 001:307 JLINK_TIF_Select(JLINKARM_TIF_SWD)  returns 0x00 (0003ms, 0288ms total)
T0CC0 001:310 JLINK_SetSpeed(5000) (0000ms, 0288ms total)
T0CC0 001:310 JLINK_GetId() >0x10B TIF>Found SW-DP with ID 0x0BB11477 >0x0D TIF> >0x28 TIF> >0x0D TIF> >0x28 TIF> >0x0D TIF> >0x28 TIF> >0x0D TIF> >0x28 TIF> >0x0D TIF> >0x21 TIF> >0x0D TIF> >0x28 TIF>Scanning AP map to find all available APs >0x0D TIF> >0x28 TIF> >0x0D TIF> >0x21 TIF> >0x0D TIF> >0x21 TIF> >0x0D TIF> >0x28 TIF> >0x0D TIF> >0x21 TIF> >0x0D TIF> >0x21 TIF>AP[1]: Stopped AP scan as end of AP map has been reachedAP[0]: AHB-AP (IDR: 0x04770021)Iterating through AP map to find AHB-AP to use
 >0x42 TIF> >0x28 TIF> >0x0D TIF> >0x28 TIF> >0x0D TIF> >0x21 TIF> >0x0D TIF> >0x21 TIF> >0x42 TIF> >0x28 TIF> >0x0D TIF> >0x28 TIF> >0x0D TIF> >0x28 TIF> >0x0D TIF> >0x21 TIF> >0x0D TIF> >0x21 TIF>AP[0]: Core foundAP[0]: AHB-AP ROM base: 0xE00FF000 >0x0D TIF> >0x28 TIF> >0x0D TIF> >0x28 TIF> >0x0D TIF> >0x28 TIF> >0x0D TIF> >0x21 TIF> >0x0D TIF> >0x21 TIF>CPUID register: 0x410CC200. Implementer code: 0x41 (ARM)Found Cortex-M0 r0p0, Little endian. -- Max. mem block: 0x00006040
 -- CPU_ReadMem(4 bytes @ 0xE000EDF0) -- CPU_WriteMem(4 bytes @ 0xE000EDF0) -- CPU_ReadMem(4 bytes @ 0xE0002000)FPUnit: 4 code (BP) slots and 0 literal slots -- CPU_ReadMem(4 bytes @ 0xE000EDFC) -- CPU_WriteMem(4 bytes @ 0xE000EDFC) -- CPU_ReadMem(4 bytes @ 0xE0001000) -- CPU_WriteMem(4 bytes @ 0xE0001000)CoreSight components:ROMTbl[0] @ E00FF000 -- CPU_ReadMem(16 bytes @ 0xE00FF000) -- CPU_ReadMem(16 bytes @ 0xE000EFF0) -- CPU_ReadMem(16 bytes @ 0xE000EFE0)
ROMTbl[0][0]: E000E000, CID: B105E00D, PID: 000BB008 SCS -- CPU_ReadMem(16 bytes @ 0xE0001FF0) -- CPU_ReadMem(16 bytes @ 0xE0001FE0)ROMTbl[0][1]: E0001000, CID: B105E00D, PID: 000BB00A DWT -- CPU_ReadMem(16 bytes @ 0xE0002FF0) -- CPU_ReadMem(16 bytes @ 0xE0002FE0)ROMTbl[0][2]: E0002000, CID: B105E00D, PID: 000BB00B FPB >0x0D TIF> >0x21 TIF>  returns 0x0BB11477 (0128ms, 0416ms total)
T0CC0 001:438 JLINK_GetDLLVersion()  returns 64600 (0000ms, 0416ms total)
T0CC0 001:438 JLINK_CORE_GetFound()  returns 0x60000FF (0000ms, 0416ms total)
T0CC0 001:438 JLINK_GetDebugInfo(0x100 = JLINKARM_ROM_TABLE_ADDR_INDEX) -- Value=0xE00FF000  returns 0x00 (0000ms, 0416ms total)
T0CC0 001:438 JLINK_GetDebugInfo(0x100 = JLINKARM_ROM_TABLE_ADDR_INDEX) -- Value=0xE00FF000  returns 0x00 (0000ms, 0416ms total)
T0CC0 001:438 JLINK_GetDebugInfo(0x101 = JLINKARM_DEBUG_INFO_ETM_ADDR_INDEX) -- Value=0x00000000  returns 0x00 (0000ms, 0416ms total)
T0CC0 001:438 JLINK_ReadMemEx(0xE0041FF0, 0x0010 Bytes, ..., Flags = 0x02000004) -- CPU_ReadMem(16 bytes @ 0xE0041FF0) - Data: 00 00 00 00 00 00 00 00 00 00 00 00 00 00 00 00  returns 0x10 (0002ms, 0418ms total)
T0CC0 001:440 JLINK_GetDebugInfo(0x102 = JLINKARM_DEBUG_INFO_MTB_ADDR_INDEX) -- Value=0x00000000  returns 0x00 (0000ms, 0418ms total)
T0CC0 001:440 JLINK_GetDebugInfo(0x103 = JLINKARM_DEBUG_INFO_TPIU_ADDR_INDEX) -- Value=0x00000000  returns 0x00 (0000ms, 0418ms total)
T0CC0 001:440 JLINK_ReadMemEx(0xE0040FF0, 0x0010 Bytes, ..., Flags = 0x02000004) -- CPU_ReadMem(16 bytes @ 0xE0040FF0) - Data: 00 00 00 00 00 00 00 00 00 00 00 00 00 00 00 00  returns 0x10 (0000ms, 0418ms total)
T0CC0 001:440 JLINK_GetDebugInfo(0x104 = JLINKARM_DEBUG_INFO_ITM_ADDR_INDEX) -- Value=0xE0000000  returns 0x00 (0000ms, 0418ms total)
T0CC0 001:440 JLINK_GetDebugInfo(0x105 = JLINKARM_DEBUG_INFO_DWT_ADDR_INDEX) -- Value=0xE0001000  returns 0x00 (0000ms, 0418ms total)
T0CC0 001:440 JLINK_GetDebugInfo(0x106 = JLINKARM_DEBUG_INFO_FPB_ADDR_INDEX) -- Value=0xE0002000  returns 0x00 (0000ms, 0418ms total)
T0CC0 001:440 JLINK_GetDebugInfo(0x107 = JLINKARM_DEBUG_INFO_NVIC_ADDR_INDEX) -- Value=0xE000E000  returns 0x00 (0000ms, 0418ms total)
T0CC0 001:440 JLINK_GetDebugInfo(0x10C = JLINKARM_DEBUG_INFO_DBG_ADDR_INDEX) -- Value=0xE000EDF0  returns 0x00 (0000ms, 0418ms total)
T0CC0 001:440 JLINK_GetDebugInfo(0x01 = Unknown) -- Value=0x00000000  returns 0x00 (0000ms, 0418ms total)
T0CC0 001:440 JLINK_ReadMemU32(0xE000ED00, 0x0001 Items, ...) -- CPU_ReadMem(4 bytes @ 0xE000ED00) - Data: 00 C2 0C 41  returns 1 (0001ms, 0419ms total)
T0CC0 001:441 JLINK_GetDebugInfo(0x10F = JLINKARM_DEBUG_INFO_HAS_CORTEX_M_SECURITY_EXT_INDEX) -- Value=0x00000000  returns 0x00 (0000ms, 0419ms total)
T0CC0 001:441 JLINK_SetResetType(JLINKARM_CM3_RESET_TYPE_NORMAL)  returns JLINKARM_CM3_RESET_TYPE_NORMAL (0000ms, 0419ms total)
T0CC0 001:441 JLINK_Reset() -- CPU is running -- CPU_WriteMem(4 bytes @ 0xE000EDF0) -- CPU is running -- CPU_WriteMem(4 bytes @ 0xE000EDFC)Reset: Halt core after reset via DEMCR.VC_CORERESET. >0x35 TIF>Reset: Reset device via AIRCR.SYSRESETREQ. -- CPU is running -- CPU_WriteMem(4 bytes @ 0xE000ED0C) >0x0D TIF> >0x28 TIF> -- CPU_ReadMem(4 bytes @ 0xE000EDF0) -- CPU_ReadMem(4 bytes @ 0xE000EDF0) -- CPU is running -- CPU_WriteMem(4 bytes @ 0xE000EDF0) -- CPU is running -- CPU_WriteMem(4 bytes @ 0xE000EDFC)
 -- CPU_ReadMem(4 bytes @ 0xE000EDF0) -- CPU_WriteMem(4 bytes @ 0xE0002000) -- CPU_ReadMem(4 bytes @ 0xE000EDFC) -- CPU_ReadMem(4 bytes @ 0xE0001000) -- CPU_WriteMem(4 bytes @ 0xE0001000) (0074ms, 0493ms total)
T0CC0 001:515 JLINK_ReadReg(R15 (PC))  returns 0x000019B8 (0000ms, 0493ms total)
T0CC0 001:515 JLINK_ReadReg(XPSR)  returns 0xC1000000 (0000ms, 0493ms total)
T0CC0 001:515 JLINK_Halt()  returns 0x00 (0000ms, 0493ms total)
T0CC0 001:515 JLINK_ReadMemU32(0xE000EDF0, 0x0001 Items, ...) -- CPU_ReadMem(4 bytes @ 0xE000EDF0) - Data: 03 00 03 00  returns 1 (0001ms, 0494ms total)
T0CC0 001:516 JLINK_WriteU32(0xE000EDF0, 0xA05F0003) -- CPU_WriteMem(4 bytes @ 0xE000EDF0)  returns 0 (0000ms, 0494ms total)
T0CC0 001:517 JLINK_WriteU32(0xE000EDFC, 0x01000000) -- CPU_WriteMem(4 bytes @ 0xE000EDFC)  returns 0 (0001ms, 0496ms total)
T0CC0 001:518 JLINK_GetHWStatus(...)  returns 0x00 (0000ms, 0496ms total)
T0CC0 001:518 JLINK_GetNumBPUnits(Type = 0xFFFFFF00)  returns 0x04 (0000ms, 0496ms total)
T0CC0 001:518 JLINK_GetNumBPUnits(Type = 0xF0)  returns 0x2000 (0000ms, 0496ms total)
T0CC0 001:518 JLINK_GetNumWPUnits()  returns 0x02 (0000ms, 0496ms total)
T0CC0 001:518 JLINK_GetSpeed()  returns 0xA6B (0000ms, 0496ms total)
T0CC0 001:518 JLINK_ReadMemU32(0xE000E004, 0x0001 Items, ...) -- CPU_ReadMem(4 bytes @ 0xE000E004) - Data: 00 00 00 00  returns 1 (0001ms, 0497ms total)
T0CC0 001:519 JLINK_ReadReg(R15 (PC))  returns 0x000019B8 (0000ms, 0497ms total)
T0CC0 001:519 JLINK_ReadReg(XPSR)  returns 0xC1000000 (0000ms, 0497ms total)
T0CC0 002:784 JLINK_ReadReg(R0)  returns 0xFFFFFFFF (0000ms, 0497ms total)
T0CC0 002:784 JLINK_ReadReg(R1)  returns 0xFFFFFFFF (0000ms, 0497ms total)
T0CC0 002:784 JLINK_ReadReg(R2)  returns 0xFFFFFFFF (0000ms, 0497ms total)
T0CC0 002:784 JLINK_ReadReg(R3)  returns 0xFFFFFFFF (0000ms, 0497ms total)
T0CC0 002:784 JLINK_ReadReg(R4)  returns 0xFFFFFFFF (0000ms, 0497ms total)
T0CC0 002:784 JLINK_ReadReg(R5)  returns 0xFFFFFFFF (0000ms, 0497ms total)
T0CC0 002:784 JLINK_ReadReg(R6)  returns 0xFFFFFFFF (0000ms, 0497ms total)
T0CC0 002:784 JLINK_ReadReg(R7)  returns 0xFFFFFFFF (0000ms, 0497ms total)
T0CC0 002:784 JLINK_ReadReg(R8)  returns 0xFFFFFFFF (0000ms, 0497ms total)
T0CC0 002:784 JLINK_ReadReg(R9)  returns 0xFFFFFFFF (0000ms, 0497ms total)
T0CC0 002:784 JLINK_ReadReg(R10)  returns 0xFFFFFFFF (0000ms, 0497ms total)
T0CC0 002:784 JLINK_ReadReg(R11)  returns 0xFFFFFFFF (0000ms, 0497ms total)
T0CC0 002:784 JLINK_ReadReg(R12)  returns 0xFFFFFFFF (0000ms, 0497ms total)
T0CC0 002:784 JLINK_ReadReg(R13 (SP))  returns 0x07FD7868 (0000ms, 0497ms total)
T0CC0 002:784 JLINK_ReadReg(R14)  returns 0xFFFFFFFF (0000ms, 0497ms total)
T0CC0 002:784 JLINK_ReadReg(R15 (PC))  returns 0x000019B8 (0000ms, 0497ms total)
T0CC0 002:784 JLINK_ReadReg(XPSR)  returns 0xC1000000 (0000ms, 0497ms total)
T0CC0 002:784 JLINK_ReadReg(MSP)  returns 0x07FD7868 (0000ms, 0497ms total)
T0CC0 002:784 JLINK_ReadReg(PSP)  returns 0xFFFFFFFC (0000ms, 0497ms total)
T0CC0 002:784 JLINK_ReadReg(CFBP)  returns 0x00000000 (0000ms, 0497ms total)
T0CC0 002:784 JLINK_WriteMemEx(0x50003300, 0x0004 Bytes, ..., Flags = 0x02000000) - Data: 08 00 00 00 -- CPU_WriteMem(4 bytes @ 0x50003300)  returns 0x04 (0001ms, 0498ms total)
T0CC0 002:785 JLINK_WriteMemEx(0x50003102, 0x0004 Bytes, ..., Flags = 0x02000000) - Data: 01 00 00 00 -- CPU_WriteMem(4 bytes @ 0x50003102)  returns 0x04 (0001ms, 0499ms total)
T0CC0 002:786 JLINK_WriteMemEx(0x50003100, 0x0004 Bytes, ..., Flags = 0x02000000) - Data: 05 00 00 00 -- CPU_WriteMem(4 bytes @ 0x50003100)  returns 0xFFFFFFFF (0001ms, 0500ms total)
T0CC0 002:787 JLINK_SetResetType(JLINKARM_CM3_RESET_TYPE_NORMAL)  returns JLINKARM_CM3_RESET_TYPE_NORMAL (0000ms, 0500ms total)
T0CC0 002:787 JLINK_Reset() -- CPU_WriteMem(4 bytes @ 0xE000EDF0) -- CPU_WriteMem(4 bytes @ 0xE000EDFC)Reset: Halt core after reset via DEMCR.VC_CORERESET. >0x35 TIF>Reset: Reset device via AIRCR.SYSRESETREQ. -- CPU_WriteMem(4 bytes @ 0xE000ED0C) >0x0D TIF> >0x28 TIF> -- CPU_ReadMem(4 bytes @ 0xE000EDF0) -- CPU_ReadMem(4 bytes @ 0xE000EDF0) -- CPU_WriteMem(4 bytes @ 0xE000EDF0) -- CPU_WriteMem(4 bytes @ 0xE000EDFC) -- CPU_ReadMem(4 bytes @ 0xE000EDF0) -- CPU_WriteMem(4 bytes @ 0xE0002000)
 -- CPU_ReadMem(4 bytes @ 0xE000EDFC) -- CPU_ReadMem(4 bytes @ 0xE0001000) -- CPU_WriteMem(4 bytes @ 0xE0001000) (0066ms, 0566ms total)
T0CC0 002:853 JLINK_ReadReg(R15 (PC))  returns 0x000009F2 (0000ms, 0566ms total)
T0CC0 002:853 JLINK_ReadReg(XPSR)  returns 0x61000000 (0000ms, 0566ms total)
T0CC0 002:853 JLINK_ReadReg(R0)  returns 0x07FD7604 (0000ms, 0566ms total)
T0CC0 002:853 JLINK_ReadReg(R1)  returns 0x00002000 (0000ms, 0566ms total)
T0CC0 002:853 JLINK_ReadReg(R2)  returns 0x00008000 (0000ms, 0566ms total)
T0CC0 002:853 JLINK_ReadReg(R3)  returns 0xE000E100 (0000ms, 0566ms total)
T0CC0 002:853 JLINK_ReadReg(R4)  returns 0x00000000 (0000ms, 0566ms total)
T0CC0 002:856 JLINK_ReadMemEx(0x000009F2, 0x0002 Bytes, ..., Flags = 0x02000000) -- CPU_ReadMem(2 bytes @ 0x000009F2) - Data: 00 68  returns 0x02 (0000ms, 0566ms total)
T0CC0 002:856 JLINK_ReadMemEx(0x000009F4, 0x003C Bytes, ..., Flags = 0x02000000) -- CPU_ReadMem(60 bytes @ 0x000009F4) - Data: 00 28 F4 D0 C4 48 00 68 00 28 0B D1 01 20 C1 49 ...  returns 0x3C (0001ms, 0567ms total)
T0CC0 002:857 JLINK_ReadMemEx(0x000009F4, 0x0002 Bytes, ..., Flags = 0x02000000) -- CPU_ReadMem(2 bytes @ 0x000009F4) - Data: 00 28  returns 0x02 (0001ms, 0568ms total)
T0CC0 002:858 JLINK_ReadMemEx(0x000009F4, 0x003C Bytes, ..., Flags = 0x02000000) -- CPU_ReadMem(60 bytes @ 0x000009F4) - Data: 00 28 F4 D0 C4 48 00 68 00 28 0B D1 01 20 C1 49 ...  returns 0x3C (0002ms, 0570ms total)
T0CC0 002:860 JLINK_ReadMemEx(0x000009F4, 0x0002 Bytes, ..., Flags = 0x02000000) -- CPU_ReadMem(2 bytes @ 0x000009F4) - Data: 00 28  returns 0x02 (0000ms, 0570ms total)
T0CC0 002:860 JLINK_ReadMemEx(0x000009F6, 0x0002 Bytes, ..., Flags = 0x02000000) -- CPU_ReadMem(2 bytes @ 0x000009F6) - Data: F4 D0  returns 0x02 (0001ms, 0571ms total)
T0CC0 002:861 JLINK_ReadMemEx(0x000009F6, 0x0002 Bytes, ..., Flags = 0x02000000) -- CPU_ReadMem(2 bytes @ 0x000009F6) - Data: F4 D0  returns 0x02 (0000ms, 0571ms total)
T0CC0 002:861 JLINK_ReadMemEx(0x000009F8, 0x003C Bytes, ..., Flags = 0x02000000) -- CPU_ReadMem(60 bytes @ 0x000009F8) - Data: C4 48 00 68 00 28 0B D1 01 20 C1 49 C8 80 08 46 ...  returns 0x3C (0001ms, 0572ms total)
T0CC0 002:862 JLINK_ReadMemEx(0x000009F8, 0x0002 Bytes, ..., Flags = 0x02000000) -- CPU_ReadMem(2 bytes @ 0x000009F8) - Data: C4 48  returns 0x02 (0001ms, 0573ms total)
T0CC0 002:863 JLINK_ReadMemEx(0x000009F8, 0x003C Bytes, ..., Flags = 0x02000000) -- CPU_ReadMem(60 bytes @ 0x000009F8) - Data: C4 48 00 68 00 28 0B D1 01 20 C1 49 C8 80 08 46 ...  returns 0x3C (0001ms, 0574ms total)
T0CC0 002:864 JLINK_ReadMemEx(0x000009F8, 0x0002 Bytes, ..., Flags = 0x02000000) -- CPU_ReadMem(2 bytes @ 0x000009F8) - Data: C4 48  returns 0x02 (0000ms, 0574ms total)
T0CC0 002:864 JLINK_ReadMemEx(0x000009FA, 0x0002 Bytes, ..., Flags = 0x02000000) -- CPU_ReadMem(2 bytes @ 0x000009FA) - Data: 00 68  returns 0x02 (0001ms, 0575ms total)
T0CC0 002:865 JLINK_ReadMemEx(0x000009FA, 0x0002 Bytes, ..., Flags = 0x02000000) -- CPU_ReadMem(2 bytes @ 0x000009FA) - Data: 00 68  returns 0x02 (0000ms, 0575ms total)
T0CC0 002:865 JLINK_ReadMemEx(0x000009FC, 0x003C Bytes, ..., Flags = 0x02000000) -- CPU_ReadMem(60 bytes @ 0x000009FC) - Data: 00 28 0B D1 01 20 C1 49 C8 80 08 46 40 88 C0 B2 ...  returns 0x3C (0001ms, 0576ms total)
T0CC0 002:866 JLINK_ReadMemEx(0x000009FC, 0x0002 Bytes, ..., Flags = 0x02000000) -- CPU_ReadMem(2 bytes @ 0x000009FC) - Data: 00 28  returns 0x02 (0001ms, 0577ms total)
T0CC0 002:877 JLINK_ReadReg(R0)  returns 0x07FD7604 (0000ms, 0577ms total)
T0CC0 002:877 JLINK_ReadReg(R1)  returns 0x00002000 (0000ms, 0577ms total)
T0CC0 002:877 JLINK_ReadReg(R2)  returns 0x00008000 (0000ms, 0577ms total)
T0CC0 002:877 JLINK_ReadReg(R3)  returns 0xE000E100 (0000ms, 0577ms total)
T0CC0 002:877 JLINK_ReadReg(R4)  returns 0x00000000 (0000ms, 0577ms total)
T0CC0 002:877 JLINK_ReadReg(R5)  returns 0x00000001 (0000ms, 0577ms total)
T0CC0 002:877 JLINK_ReadReg(R6)  returns 0x00000000 (0000ms, 0577ms total)
T0CC0 002:877 JLINK_ReadReg(R7)  returns 0xFFFFFFFF (0000ms, 0577ms total)
T0CC0 002:877 JLINK_ReadReg(R8)  returns 0xFFFFFFFF (0000ms, 0577ms total)
T0CC0 002:877 JLINK_ReadReg(R9)  returns 0xFFFFFFFF (0000ms, 0577ms total)
T0CC0 002:877 JLINK_ReadReg(R10)  returns 0xFFFFFFFF (0000ms, 0577ms total)
T0CC0 002:877 JLINK_ReadReg(R11)  returns 0xFFFFFFFF (0000ms, 0577ms total)
T0CC0 002:877 JLINK_ReadReg(R12)  returns 0xFFFFFFFF (0000ms, 0577ms total)
T0CC0 002:877 JLINK_ReadReg(R13 (SP))  returns 0x07FD7828 (0000ms, 0577ms total)
T0CC0 002:877 JLINK_ReadReg(R14)  returns 0x00000A93 (0000ms, 0577ms total)
T0CC0 002:877 JLINK_ReadReg(R15 (PC))  returns 0x000009F2 (0000ms, 0577ms total)
T0CC0 002:877 JLINK_ReadReg(XPSR)  returns 0x61000000 (0000ms, 0577ms total)
T0CC0 002:877 JLINK_ReadReg(MSP)  returns 0x07FD7828 (0000ms, 0577ms total)
T0CC0 002:877 JLINK_ReadReg(PSP)  returns 0xFFFFFFFC (0000ms, 0577ms total)
T0CC0 002:877 JLINK_ReadReg(CFBP)  returns 0x00000000 (0000ms, 0577ms total)
T0CC0 002:877 JLINK_WriteMemEx(0x50000012, 0x0004 Bytes, ..., Flags = 0x02000000) - Data: A2 00 00 00 -- CPU_WriteMem(4 bytes @ 0x50000012)  returns 0x04 (0001ms, 0578ms total)
T0CC0 002:993 JLINK_WriteMemEx(0x07FC0000, 0x00A0 Bytes, ..., Flags = 0x02000000) - Data: B0 60 FC 07 6D 05 FC 07 75 05 FC 07 8D 05 FC 07 ... -- CPU_WriteMem(160 bytes @ 0x07FC0000)  returns 0xA0 (0002ms, 0580ms total)
T0CC0 002:995 JLINK_ReadMemEx(0x07FC0000, 0x00A0 Bytes, ..., Flags = 0x02000000) -- CPU_ReadMem(160 bytes @ 0x07FC0000) - Data: B0 60 FC 07 6D 05 FC 07 75 05 FC 07 8D 05 FC 07 ...  returns 0xA0 (0001ms, 0581ms total)
T0CC0 002:997 JLINK_WriteMemEx(0x07FC0510, 0x1000 Bytes, ..., Flags = 0x02000000) - Data: 03 48 85 46 04 F0 08 FD 00 48 00 47 41 08 FC 07 ... -- CPU_WriteMem(4096 bytes @ 0x07FC0510)  returns 0x1000 (0023ms, 0604ms total)
T0CC0 003:021 JLINK_ReadMemEx(0x07FC0510, 0x1000 Bytes, ..., Flags = 0x02000000) -- CPU_ReadMem(4096 bytes @ 0x07FC0510) - Data: 03 48 85 46 04 F0 08 FD 00 48 00 47 41 08 FC 07 ...  returns 0x1000 (0022ms, 0626ms total)
T0CC0 003:044 JLINK_WriteMemEx(0x07FC1510, 0x1000 Bytes, ..., Flags = 0x02000000) - Data: 0E D0 01 43 21 80 09 20 60 80 E9 78 02 20 00 29 ... -- CPU_WriteMem(4096 bytes @ 0x07FC1510)  returns 0x1000 (0024ms, 0650ms total)
T0CC0 003:068 JLINK_ReadMemEx(0x07FC1510, 0x1000 Bytes, ..., Flags = 0x02000000) -- CPU_ReadMem(4096 bytes @ 0x07FC1510) - Data: 0E D0 01 43 21 80 09 20 60 80 E9 78 02 20 00 29 ...  returns 0x1000 (0022ms, 0672ms total)
T0CC0 003:091 JLINK_WriteMemEx(0x07FC2510, 0x1000 Bytes, ..., Flags = 0x02000000) - Data: 03 E0 21 79 A9 42 03 D0 24 68 00 2C F9 D1 17 E0 ... -- CPU_WriteMem(4096 bytes @ 0x07FC2510)  returns 0x1000 (0024ms, 0696ms total)
T0CC0 003:115 JLINK_ReadMemEx(0x07FC2510, 0x1000 Bytes, ..., Flags = 0x02000000) -- CPU_ReadMem(4096 bytes @ 0x07FC2510) - Data: 03 E0 21 79 A9 42 03 D0 24 68 00 2C F9 D1 17 E0 ...  returns 0x1000 (0022ms, 0718ms total)
T0CC0 003:138 JLINK_WriteMemEx(0x07FC3510, 0x1000 Bytes, ..., Flags = 0x02000000) - Data: 27 46 47 43 74 48 3D 18 AC 70 FF 2C 15 D0 01 21 ... -- CPU_WriteMem(4096 bytes @ 0x07FC3510)  returns 0x1000 (0024ms, 0742ms total)
T0CC0 003:162 JLINK_ReadMemEx(0x07FC3510, 0x1000 Bytes, ..., Flags = 0x02000000) -- CPU_ReadMem(4096 bytes @ 0x07FC3510) - Data: 27 46 47 43 74 48 3D 18 AC 70 FF 2C 15 D0 01 21 ...  returns 0x1000 (0022ms, 0764ms total)
T0CC0 003:185 JLINK_WriteMemEx(0x07FC4510, 0x1000 Bytes, ..., Flags = 0x02000000) - Data: 40 01 40 09 59 F7 50 FD 0A 91 00 98 C0 19 40 1A ... -- CPU_WriteMem(4096 bytes @ 0x07FC4510)  returns 0x1000 (0024ms, 0788ms total)
T0CC0 003:209 JLINK_ReadMemEx(0x07FC4510, 0x1000 Bytes, ..., Flags = 0x02000000) -- CPU_ReadMem(4096 bytes @ 0x07FC4510) - Data: 40 01 40 09 59 F7 50 FD 0A 91 00 98 C0 19 40 1A ...  returns 0x1000 (0022ms, 0810ms total)
T0CC0 003:232 JLINK_WriteMemEx(0x07FC5510, 0x0554 Bytes, ..., Flags = 0x02000000) - Data: 05 00 00 00 06 00 00 00 0A 00 00 00 0A 00 00 00 ... -- CPU_WriteMem(1364 bytes @ 0x07FC5510)  returns 0x554 (0009ms, 0819ms total)
T0CC0 003:241 JLINK_ReadMemEx(0x07FC5510, 0x0554 Bytes, ..., Flags = 0x02000000) -- CPU_ReadMem(1364 bytes @ 0x07FC5510) - Data: 05 00 00 00 06 00 00 00 0A 00 00 00 0A 00 00 00 ...  returns 0x554 (0008ms, 0827ms total)
T0CC0 003:300 JLINK_SetResetType(JLINKARM_CM3_RESET_TYPE_NORMAL)  returns JLINKARM_CM3_RESET_TYPE_NORMAL (0001ms, 0828ms total)
T0CC0 003:301 JLINK_Reset() -- CPU_ReadMem(4 bytes @ 0x07FC5510) -- CPU_WriteMem(4 bytes @ 0x07FC5510) -- CPU_WriteMem(4 bytes @ 0xE000EDF0) -- CPU_WriteMem(4 bytes @ 0xE000EDFC)Reset: Halt core after reset via DEMCR.VC_CORERESET. >0x35 TIF>Reset: Reset device via AIRCR.SYSRESETREQ. -- CPU_WriteMem(4 bytes @ 0xE000ED0C) >0x0D TIF> >0x28 TIF> -- CPU_ReadMem(4 bytes @ 0xE000EDF0) -- CPU_ReadMem(4 bytes @ 0xE000EDF0) -- CPU_WriteMem(4 bytes @ 0xE000EDF0) -- CPU_WriteMem(4 bytes @ 0xE000EDFC)
 -- CPU_ReadMem(4 bytes @ 0xE000EDF0) -- CPU_WriteMem(4 bytes @ 0xE0002000) -- CPU_ReadMem(4 bytes @ 0xE000EDFC) -- CPU_ReadMem(4 bytes @ 0xE0001000) -- CPU_WriteMem(4 bytes @ 0xE0001000) (0072ms, 0900ms total)
T0CC0 003:373 JLINK_ReadReg(R15 (PC))  returns 0x07FC056C (0000ms, 0900ms total)
T0CC0 003:373 JLINK_ReadReg(XPSR)  returns 0xC1000000 (0000ms, 0900ms total)
T0CC0 003:373 JLINK_ReadReg(R0)  returns 0xFFFFFFFF (0000ms, 0900ms total)
T0CC0 003:373 JLINK_ReadReg(R1)  returns 0xFFFFFFFF (0000ms, 0900ms total)
T0CC0 003:373 JLINK_ReadReg(R2)  returns 0xFFFFFFFF (0000ms, 0900ms total)
T0CC0 003:373 JLINK_ReadReg(R3)  returns 0xFFFFFFFF (0000ms, 0900ms total)
T0CC0 003:373 JLINK_ReadReg(R4)  returns 0xFFFFFFFF (0000ms, 0900ms total)
T0CC0 003:522 JLINK_ReadMemEx(0x07FC056C, 0x003C Bytes, ..., Flags = 0x02000000) -- CPU_ReadMem(60 bytes @ 0x07FC056C) - Data: 0F 48 80 47 0F 48 00 47 04 20 71 46 08 42 03 D0 ...  returns 0x3C (0001ms, 0901ms total)
T0CC0 003:523 JLINK_ReadMemEx(0x07FC056C, 0x0002 Bytes, ..., Flags = 0x02000000) -- CPU_ReadMem(2 bytes @ 0x07FC056C) - Data: 0F 48  returns 0x02 (0001ms, 0902ms total)
T0CC0 003:524 JLINK_ReadMemEx(0x07FC056E, 0x0002 Bytes, ..., Flags = 0x02000000) -- CPU_ReadMem(2 bytes @ 0x07FC056E) - Data: 80 47  returns 0x02 (0000ms, 0902ms total)
T0CC0 003:524 JLINK_ReadMemEx(0x07FC056E, 0x0002 Bytes, ..., Flags = 0x02000000) -- CPU_ReadMem(2 bytes @ 0x07FC056E) - Data: 80 47  returns 0x02 (0000ms, 0902ms total)
T0CC0 003:524 JLINK_ReadMemEx(0x07FC0570, 0x003C Bytes, ..., Flags = 0x02000000) -- CPU_ReadMem(60 bytes @ 0x07FC0570) - Data: 0F 48 00 47 04 20 71 46 08 42 03 D0 EF F3 09 80 ...  returns 0x3C (0001ms, 0903ms total)
T0CC0 003:525 JLINK_ReadMemEx(0x07FC0570, 0x0002 Bytes, ..., Flags = 0x02000000) -- CPU_ReadMem(2 bytes @ 0x07FC0570) - Data: 0F 48  returns 0x02 (0001ms, 0904ms total)
T0CC0 003:549 JLINK_ReadReg(R0)  returns 0xFFFFFFFF (0000ms, 0904ms total)
T0CC0 003:549 JLINK_ReadReg(R1)  returns 0xFFFFFFFF (0000ms, 0904ms total)
T0CC0 003:549 JLINK_ReadReg(R2)  returns 0xFFFFFFFF (0000ms, 0904ms total)
T0CC0 003:549 JLINK_ReadReg(R3)  returns 0xFFFFFFFF (0000ms, 0904ms total)
T0CC0 003:549 JLINK_ReadReg(R4)  returns 0xFFFFFFFF (0000ms, 0904ms total)
T0CC0 003:549 JLINK_ReadReg(R5)  returns 0xFFFFFFFF (0000ms, 0904ms total)
T0CC0 003:549 JLINK_ReadReg(R6)  returns 0xFFFFFFFF (0000ms, 0904ms total)
T0CC0 003:549 JLINK_ReadReg(R7)  returns 0xFFFFFFFF (0000ms, 0904ms total)
T0CC0 003:549 JLINK_ReadReg(R8)  returns 0xFFFFFFFF (0000ms, 0904ms total)
T0CC0 003:549 JLINK_ReadReg(R9)  returns 0xFFFFFFFF (0000ms, 0904ms total)
T0CC0 003:549 JLINK_ReadReg(R10)  returns 0xFFFFFFFF (0000ms, 0904ms total)
T0CC0 003:549 JLINK_ReadReg(R11)  returns 0xFFFFFFFF (0000ms, 0904ms total)
T0CC0 003:549 JLINK_ReadReg(R12)  returns 0xFFFFFFFF (0000ms, 0904ms total)
T0CC0 003:549 JLINK_ReadReg(R13 (SP))  returns 0x07FC60B0 (0000ms, 0904ms total)
T0CC0 003:549 JLINK_ReadReg(R14)  returns 0xFFFFFFFF (0000ms, 0904ms total)
T0CC0 003:549 JLINK_ReadReg(R15 (PC))  returns 0x07FC056C (0000ms, 0904ms total)
T0CC0 003:549 JLINK_ReadReg(XPSR)  returns 0xC1000000 (0000ms, 0904ms total)
T0CC0 003:549 JLINK_ReadReg(MSP)  returns 0x07FC60B0 (0000ms, 0904ms total)
T0CC0 003:549 JLINK_ReadReg(PSP)  returns 0xFFFFFFFC (0000ms, 0904ms total)
T0CC0 003:549 JLINK_ReadReg(CFBP)  returns 0x00000000 (0000ms, 0904ms total)
T0CC0 003:550 JLINK_ReadMemEx(0x00000002, 0x0002 Bytes, ..., Flags = 0x02000000) -- CPU_ReadMem(2 bytes @ 0x00000002) - Data: FC 07  returns 0x02 (0000ms, 0904ms total)
T0CC0 003:550 JLINK_ReadMemEx(0x00000000, 0x0002 Bytes, ..., Flags = 0x02000000) -- CPU_ReadMem(2 bytes @ 0x00000000) - Data: B0 60  returns 0x02 (0001ms, 0905ms total)
T0CC0 003:552 JLINK_ReadMemEx(0x00000006, 0x0002 Bytes, ..., Flags = 0x02000000) -- CPU_ReadMem(2 bytes @ 0x00000006) - Data: FC 07  returns 0x02 (0001ms, 0906ms total)
T0CC0 003:553 JLINK_ReadMemEx(0x00000004, 0x0002 Bytes, ..., Flags = 0x02000000) -- CPU_ReadMem(2 bytes @ 0x00000004) - Data: 6D 05  returns 0x02 (0000ms, 0906ms total)
T0CC0 003:553 JLINK_ReadMemEx(0x00000002, 0x0002 Bytes, ..., Flags = 0x02000000) -- CPU_ReadMem(2 bytes @ 0x00000002) - Data: FC 07  returns 0x02 (0001ms, 0907ms total)
T0CC0 003:554 JLINK_ReadMemEx(0x00000000, 0x0002 Bytes, ..., Flags = 0x02000000) -- CPU_ReadMem(2 bytes @ 0x00000000) - Data: B0 60  returns 0x02 (0000ms, 0907ms total)
T0CC0 003:554 JLINK_ReadMemEx(0x00000006, 0x0002 Bytes, ..., Flags = 0x02000000) -- CPU_ReadMem(2 bytes @ 0x00000006) - Data: FC 07  returns 0x02 (0001ms, 0908ms total)
T0CC0 003:555 JLINK_ReadMemEx(0x00000004, 0x0002 Bytes, ..., Flags = 0x02000000) -- CPU_ReadMem(2 bytes @ 0x00000004) - Data: 6D 05  returns 0x02 (0001ms, 0909ms total)
T0CC0 003:556 JLINK_ReadMemEx(0x00000002, 0x0002 Bytes, ..., Flags = 0x02000000) -- CPU_ReadMem(2 bytes @ 0x00000002) - Data: FC 07  returns 0x02 (0001ms, 0910ms total)
T0CC0 003:557 JLINK_ReadMemEx(0x00000000, 0x0002 Bytes, ..., Flags = 0x02000000) -- CPU_ReadMem(2 bytes @ 0x00000000) - Data: B0 60  returns 0x02 (0000ms, 0910ms total)
